
**** 01/06/23 15:49:53 ******* PSpice Lite (March 2016) ******* ID# 10813 ****

 ** Profile: "lab3 optimzed-dc bias"  [ c:\users\finn\documents\github\master-thl-aic\lab_3\pspice\lab3-cascode-comparisson-PSpiceFil


 ****     CIRCUIT DESCRIPTION


******************************************************************************




** Creating circuit file "dc bias.cir" 
** WARNING: THIS AUTOMATICALLY GENERATED FILE MAY BE OVERWRITTEN BY SUBSEQUENT SIMULATIONS

*Libraries: 
* Profile Libraries :
* Local Libraries :
.LIB "../../../MovedFiles/tsmc_250nm.lib" 
* From [PSPICE NETLIST] section of C:\Users\Finn\AppData\Roaming\SPB_Data\cdssetup\OrCAD_PSpice\17.2.0\PSpice.ini file:
.lib "nomd.lib" 

*Analysis directives: 
.OP
.OPTIONS ADVCONV
.PROBE64 V(alias(*)) I(alias(*)) W(alias(*)) D(alias(*)) NOISE(alias(*)) 
.INC "..\lab3 optimzed.net" 



**** INCLUDING "lab3 optimzed.net" ****
* source LAB3-CASCODE-COMPARISSON
M_M1         N01997 N02197 0 0 nmos_tsmc  
+ L={L_var}  
+ W={W_var}          
+ M=1
I_I1         VCC N02197 DC 10u  
M_M3         N02197 BIASTOP N01997 N01997 nmos_tsmc  
+ L={L_var}  
+ W={W_var}          
+ M=1
M_M2         N00169 N02197 0 0 nmos_tsmc  
+ L={L_var}  
+ W={W_var}          
+ M=1
V_VDDC         VCC 0 3.3Vdc
M_M4         VOUTPUT BIASTOP N00169 N00169 nmos_tsmc  
+ L={L_var}  
+ W={W_var}          
+ M=1
V_VDCout         VOUTPUT 0 {Vout}
I_I2         VCC BIASTOP DC 10u  
M_M5         BIASTOP BIASTOP N03222 N03222 nmos_tsmc  
+ L={L_var}  
+ W={W_var}          
+ M=1
M_M6         N03222 BIASTOP 0 0 nmos_tsmc  
+ L={L_var}  
+ W=450n          
+ M=1
.PARAM  l_var=250n vout=1.5vdc w_var=1u

**** RESUMING "dc bias.cir" ****
.END

**** 01/06/23 15:49:53 ******* PSpice Lite (March 2016) ******* ID# 10813 ****

 ** Profile: "lab3 optimzed-dc bias"  [ c:\users\finn\documents\github\master-thl-aic\lab_3\pspice\lab3-cascode-comparisson-PSpiceFil


 ****     MOSFET MODEL PARAMETERS


******************************************************************************




               nmos_tsmc       
               NMOS            
       LEVEL    3            
           L  100.000000E-06 
           W  100.000000E-06 
          LD   31.622780E-12 
          WD   12.328810E-09 
         VTO     .423825     
          KP  250.104800E-06 
       GAMMA     .431731     
         PHI     .7          
      LAMBDA    0            
         RSH    4.062439E-03 
          IS   10.000000E-15 
          JS    0            
          PB     .5          
        PBSW     .5          
          CJ    1.812110E-03 
        CJSW  534.133700E-12 
          MJ     .328255     
        MJSW     .5          
        CGSO  620.000000E-12 
        CGDO  620.000000E-12 
        CGBO  100.000000E-12 
        NSUB  100.000000E+15 
         NFS    1.000000E+12 
         TOX    5.700000E-09 
          XJ  300.000000E-09 
          UO  425.6467       
       UCRIT   10.000000E+03 
        VMAX   82.878510E+03 
       DELTA    0            
       THETA     .175405     
         ETA    0            
       KAPPA     .168678     
      DIOMOD    1            
         VFB    0            
        LETA    0            
        WETA    0            
          U0    0            
        TEMP    0            
         VDD    5            
       XPART    0            


**** 01/06/23 15:49:53 ******* PSpice Lite (March 2016) ******* ID# 10813 ****

 ** Profile: "lab3 optimzed-dc bias"  [ c:\users\finn\documents\github\master-thl-aic\lab_3\pspice\lab3-cascode-comparisson-PSpiceFil


 ****     SMALL SIGNAL BIAS SOLUTION       TEMPERATURE =   27.000 DEG C


******************************************************************************



 NODE   VOLTAGE     NODE   VOLTAGE     NODE   VOLTAGE     NODE   VOLTAGE


(  VCC)    3.3000  (N00169)     .1469 (N01997)     .1353 (N02197)     .4630     

(N03222)     .1375 (BIASTOP)     .5934                   (VOUTPUT)    1.5000    




    VOLTAGE SOURCE CURRENTS
    NAME         CURRENT

    V_VDDC      -2.000E-05
    V_VDCout    -1.005E-05

    TOTAL POWER DISSIPATION   8.11E-05  WATTS


**** 01/06/23 15:49:53 ******* PSpice Lite (March 2016) ******* ID# 10813 ****

 ** Profile: "lab3 optimzed-dc bias"  [ c:\users\finn\documents\github\master-thl-aic\lab_3\pspice\lab3-cascode-comparisson-PSpiceFil


 ****     OPERATING POINT INFORMATION      TEMPERATURE =   27.000 DEG C


******************************************************************************






**** MOSFETS


NAME         M_M1        M_M3        M_M2        M_M4        M_M5      
MODEL        nmos_tsmc   nmos_tsmc   nmos_tsmc   nmos_tsmc   nmos_tsmc 
ID           1.00E-05    1.00E-05    1.00E-05    1.00E-05    1.00E-05 
VGS          4.63E-01    4.58E-01    4.63E-01    4.46E-01    4.56E-01 
VDS          1.35E-01    3.28E-01    1.47E-01    1.35E+00    4.56E-01 
VBS          0.00E+00    0.00E+00    0.00E+00    0.00E+00    0.00E+00 
VTH          3.28E-01    3.28E-01    3.28E-01    3.28E-01    3.28E-01 
VDSAT        1.35E-01    1.31E-01    1.35E-01    1.24E-01    1.30E-01 
Lin0/Sat1   -1.00E+00   -1.00E+00   -1.00E+00   -1.00E+00   -1.00E+00 
if          -1.00E+00   -1.00E+00   -1.00E+00   -1.00E+00   -1.00E+00 
ir          -1.00E+00   -1.00E+00   -1.00E+00   -1.00E+00   -1.00E+00 
TAU         -1.00E+00   -1.00E+00   -1.00E+00   -1.00E+00   -1.00E+00 
GM           9.92E-05    1.05E-04    1.00E-04    1.15E-04    1.07E-04 
GDS          4.19E-06    1.98E-06    3.81E-06    9.95E-07    1.64E-06 
GMB          8.69E-06    9.17E-06    8.76E-06    1.01E-05    9.34E-06 
CBD          0.00E+00    0.00E+00    0.00E+00    0.00E+00    0.00E+00 
CBS          0.00E+00    0.00E+00    0.00E+00    0.00E+00    0.00E+00 
CGSOV        6.05E-16    6.05E-16    6.05E-16    6.05E-16    6.05E-16 
CGDOV        6.05E-16    6.05E-16    6.05E-16    6.05E-16    6.05E-16 
CGBOV        2.50E-17    2.50E-17    2.50E-17    2.50E-17    2.50E-17 
CGS          9.85E-16    9.85E-16    9.85E-16    9.85E-16    9.85E-16 
CGD          0.00E+00    0.00E+00    0.00E+00    0.00E+00    0.00E+00 
CGB          0.00E+00    0.00E+00    0.00E+00    0.00E+00    0.00E+00 

NAME         M_M6      
MODEL        nmos_tsmc 
ID           1.00E-05 
VGS          5.93E-01 
VDS          1.38E-01 
VBS          0.00E+00 
VTH          3.28E-01 
VDSAT        2.08E-01 
Lin0/Sat1   -1.00E+00 
if          -1.00E+00 
ir          -1.00E+00 
TAU         -1.00E+00 
GM           4.25E-05 
GDS          3.36E-05 
GMB          3.80E-06 
CBD          0.00E+00 
CBS          0.00E+00 
CGSOV        2.64E-16 
CGDOV        2.64E-16 
CGBOV        2.50E-17 
CGS          3.35E-16 
CGD          2.83E-16 
CGB          0.00E+00 

          JOB CONCLUDED

**** 01/06/23 15:49:53 ******* PSpice Lite (March 2016) ******* ID# 10813 ****

 ** Profile: "lab3 optimzed-dc bias"  [ c:\users\finn\documents\github\master-thl-aic\lab_3\pspice\lab3-cascode-comparisson-PSpiceFil


 ****     JOB STATISTICS SUMMARY


******************************************************************************



  Total job time (using Solver 1)   =         .02
